T0B1C 000:008.157   SEGGER J-Link V6.70e Log File
T0B1C 000:008.302   DLL Compiled: Apr 17 2020 17:55:05
T0B1C 000:008.310   Logging started @ 2021-08-11 08:59
T0B1C 000:008.321 JLINK_SetWarnOutHandler(...)
T0B1C 000:008.330 - 0.012ms
T0B1C 000:008.343 JLINK_OpenEx(...)
T0B1C 000:009.943   Firmware: J-Link V9 compiled Dec 13 2019 11:14:50
T0B1C 000:010.148   Decompressing FW timestamp took 159 us
T0B1C 000:016.328   Hardware: V9.70
T0B1C 000:016.354   S/N: 59700618
T0B1C 000:016.364   OEM: SEGGER
T0B1C 000:016.374   Feature(s): RDI, FlashBP, FlashDL, JFlash, GDB
T0B1C 000:017.310   TELNET listener socket opened on port 19021
T0B1C 000:017.504   WEBSRV Starting webserver
T0B1C 000:017.624   WEBSRV Webserver running on local port 19080
T0B1C 000:017.636 - 9.297ms returns "O.K."
T0B1C 000:017.663 JLINK_GetEmuCaps()
T0B1C 000:017.670 - 0.010ms returns 0xB9FF7BBF
T0B1C 000:017.681 JLINK_TIF_GetAvailable(...)
T0B1C 000:017.834 - 0.161ms
T0B1C 000:017.851 JLINK_SetErrorOutHandler(...)
T0B1C 000:017.858 - 0.009ms
T0B1C 000:017.879 JLINK_ExecCommand("ProjectFile = "C:\Users\Stone\Desktop\STM32 code\01_Stand Temp\Project\JLinkSettings.ini"", ...). 
T0B1C 000:028.095 - 10.237ms returns 0x00
T0B1C 000:037.733 JLINK_ExecCommand("Device = STM32F103ZE", ...). 
T0B1C 000:046.532   Device "STM32F103ZE" selected.
T0B1C 000:047.049 - 9.292ms returns 0x00
T0B1C 000:047.066 JLINK_ExecCommand("DisableConnectionTimeout", ...). 
T0B1C 000:047.078 - 0.006ms returns 0x01
T0B1C 000:047.087 JLINK_GetHardwareVersion()
T0B1C 000:047.094 - 0.009ms returns 0x17AE8
T0B1C 000:047.102 JLINK_GetDLLVersion()  returns 67005
T0B1C 000:047.118 JLINK_GetFirmwareString(...)
T0B1C 000:047.125 - 0.011ms
T0B1C 000:075.166 JLINK_GetDLLVersion()  returns 67005
T0B1C 000:075.191 JLINK_GetCompileDateTime()
T0B1C 000:075.198 - 0.009ms
T0B1C 000:080.990 JLINK_GetFirmwareString(...)
T0B1C 000:081.007 - 0.021ms
T0B1C 000:085.868 JLINK_GetHardwareVersion()
T0B1C 000:085.886 - 0.020ms returns 0x17AE8
T0B1C 000:100.176 JLINK_TIF_Select(JLINKARM_TIF_JTAG)
T0B1C 000:100.896 - 0.732ms returns 0x00
T0B1C 000:100.933 JLINK_SetSpeed(10000)
T0B1C 000:101.032 - 0.108ms
T0B1C 000:101.050 JLINK_GetIdData(pIdData)
T0B1C 000:106.741   TotalIRLen = 9, IRPrint = 0x0011
T0B1C 000:110.756   JTAG chain detection found 2 devices:
T0B1C 000:114.230    #0 Id: 0x3BA00477, IRLen: 04, CoreSight JTAG-DP
T0B1C 000:117.783    #1 Id: 0x06414041, IRLen: 05, STM32 Boundary Scan
T0B1C 000:126.906   TotalIRLen = 9, IRPrint = 0x0011
T0B1C 000:130.653   JTAG chain detection found 2 devices:
T0B1C 000:134.255    #0 Id: 0x3BA00477, IRLen: 04, CoreSight JTAG-DP
T0B1C 000:137.752    #1 Id: 0x06414041, IRLen: 05, STM32 Boundary Scan
T0B1C 000:138.685   Old FW that does not support reading DPIDR via DAP jobs
T0B1C 000:142.956   Unknown DP version. Assuming DPv0
T0B1C 000:146.520   Scanning AP map to find all available APs
T0B1C 000:150.420   AP[1]: Stopped AP scan as end of AP map has been reached
T0B1C 000:154.308   AP[0]: AHB-AP (IDR: 0x14770011)
T0B1C 000:157.916   Iterating through AP map to find AHB-AP to use
T0B1C 000:162.327   AP[0]: Core found
T0B1C 000:165.817   AP[0]: AHB-AP ROM base: 0xE00FF000
T0B1C 000:170.557   CPUID register: 0x411FC231. Implementer code: 0x41 (ARM)
T0B1C 000:174.047   Found Cortex-M3 r1p1, Little endian.
T0B1C 000:174.459    -- Max. mem block: 0x00010DD0
T0B1C 000:174.492   CPU_ReadMem(4 bytes @ 0xE000EDF0)
T0B1C 000:175.592   CPU_WriteMem(4 bytes @ 0xE000EDF0)
T0B1C 000:175.835   CPU_ReadMem(4 bytes @ 0xE0002000)
T0B1C 000:179.842   FPUnit: 6 code (BP) slots and 2 literal slots
T0B1C 000:179.866   CPU_ReadMem(4 bytes @ 0xE000EDFC)
T0B1C 000:180.132   CPU_WriteMem(4 bytes @ 0xE000EDFC)
T0B1C 000:180.361   CPU_ReadMem(4 bytes @ 0xE0001000)
T0B1C 000:180.614   CPU_WriteMem(4 bytes @ 0xE0001000)
T0B1C 000:180.839   CPU_ReadMem(4 bytes @ 0xE000ED88)
T0B1C 000:181.090   CPU_WriteMem(4 bytes @ 0xE000ED88)
T0B1C 000:181.309   CPU_ReadMem(4 bytes @ 0xE000ED88)
T0B1C 000:181.558   CPU_WriteMem(4 bytes @ 0xE000ED88)
T0B1C 000:186.528   CoreSight components:
T0B1C 000:189.978   ROMTbl[0] @ E00FF000
T0B1C 000:190.001   CPU_ReadMem(64 bytes @ 0xE00FF000)
T0B1C 000:190.401   CPU_ReadMem(32 bytes @ 0xE000EFE0)
T0B1C 000:194.424   ROMTbl[0][0]: E000E000, CID: B105E00D, PID: 001BB000 SCS
T0B1C 000:194.451   CPU_ReadMem(32 bytes @ 0xE0001FE0)
T0B1C 000:198.366   ROMTbl[0][1]: E0001000, CID: B105E00D, PID: 001BB002 DWT
T0B1C 000:198.389   CPU_ReadMem(32 bytes @ 0xE0002FE0)
T0B1C 000:202.449   ROMTbl[0][2]: E0002000, CID: B105E00D, PID: 000BB003 FPB
T0B1C 000:202.473   CPU_ReadMem(32 bytes @ 0xE0000FE0)
T0B1C 000:206.763   ROMTbl[0][3]: E0000000, CID: B105E00D, PID: 001BB001 ITM
T0B1C 000:206.788   CPU_ReadMem(32 bytes @ 0xE0040FE0)
T0B1C 000:210.724   ROMTbl[0][4]: E0040000, CID: B105900D, PID: 001BB923 TPIU-Lite
T0B1C 000:210.752   CPU_ReadMem(32 bytes @ 0xE0041FE0)
T0B1C 000:215.361   ROMTbl[0][5]: E0041000, CID: B105900D, PID: 101BB924 ETM-M3
T0B1C 000:215.425   pIdData->ScanLen=9
T0B1C 000:215.436   
T0B1C 000:215.442   pIdData->NumDevices=2
T0B1C 000:215.450   
T0B1C 000:215.456   pIdData->aId[0]=0x3BA00477
T0B1C 000:215.465   
T0B1C 000:215.470   pIdData->aIrRead[0]=0
T0B1C 000:215.479   
T0B1C 000:215.485   pIdData->aScanLen[0]=0
T0B1C 000:215.493   
T0B1C 000:215.499   pIdData->aScanRead[0]=0
T0B1C 000:215.508   
T0B1C 000:215.513 - 114.466ms
T0B1C 000:215.532 JLINK_JTAG_GetDeviceID(DeviceIndex = 0)
T0B1C 000:215.540 - 0.010ms returns 0x3BA00477
T0B1C 000:215.548 JLINK_JTAG_GetDeviceInfo(DeviceIndex = 0)
T0B1C 000:215.555 - 0.009ms returns 0x00
T0B1C 000:215.564 JLINK_JTAG_GetDeviceID(DeviceIndex = 1)
T0B1C 000:215.570 - 0.009ms returns 0x6414041
T0B1C 000:215.579 JLINK_JTAG_GetDeviceInfo(DeviceIndex = 1)
T0B1C 000:215.585 - 0.009ms returns 0x00
T0B1C 000:215.594 JLINK_GetDLLVersion()  returns 67005
T0B1C 000:215.602 JLINK_CORE_GetFound()
T0B1C 000:215.609 - 0.009ms returns 0x30000FF
T0B1C 000:215.665 JLINK_GetDebugInfo(0x100 = JLINKARM_ROM_TABLE_ADDR_INDEX)
T0B1C 000:215.680   Value=0xE00FF000
T0B1C 000:215.689 - 0.027ms returns 0x00
T0B1C 000:219.106 JLINK_GetDebugInfo(0x100 = JLINKARM_ROM_TABLE_ADDR_INDEX)
T0B1C 000:219.120   Value=0xE00FF000
T0B1C 000:219.129 - 0.026ms returns 0x00
T0B1C 000:219.138 JLINK_GetDebugInfo(0x101 = JLINKARM_DEBUG_INFO_ETM_ADDR_INDEX)
T0B1C 000:219.144   Value=0xE0041000
T0B1C 000:219.153 - 0.018ms returns 0x00
T0B1C 000:219.162   JLINK_ReadMemEx(0xE0041FD0, 0x0020 Bytes, ..., Flags = 0x02000004)
T0B1C 000:219.195   CPU_ReadMem(32 bytes @ 0xE0041FD0)
T0B1C 000:219.552   Data:  04 00 00 00 00 00 00 00 00 00 00 00 00 00 00 00 ...
T0B1C 000:219.565 - 0.407ms returns 0x20
T0B1C 000:219.576 JLINK_GetDebugInfo(0x102 = JLINKARM_DEBUG_INFO_MTB_ADDR_INDEX)
T0B1C 000:219.583   Value=0x00000000
T0B1C 000:219.591 - 0.018ms returns 0x00
T0B1C 000:219.599 JLINK_GetDebugInfo(0x103 = JLINKARM_DEBUG_INFO_TPIU_ADDR_INDEX)
T0B1C 000:219.606   Value=0xE0040000
T0B1C 000:219.614 - 0.018ms returns 0x00
T0B1C 000:219.622 JLINK_GetDebugInfo(0x104 = JLINKARM_DEBUG_INFO_ITM_ADDR_INDEX)
T0B1C 000:219.628   Value=0xE0000000
T0B1C 000:219.636 - 0.017ms returns 0x00
T0B1C 000:219.644 JLINK_GetDebugInfo(0x105 = JLINKARM_DEBUG_INFO_DWT_ADDR_INDEX)
T0B1C 000:219.650   Value=0xE0001000
T0B1C 000:219.661 - 0.019ms returns 0x00
T0B1C 000:219.669 JLINK_GetDebugInfo(0x106 = JLINKARM_DEBUG_INFO_FPB_ADDR_INDEX)
T0B1C 000:219.675   Value=0xE0002000
T0B1C 000:219.684 - 0.018ms returns 0x00
T0B1C 000:219.692 JLINK_GetDebugInfo(0x107 = JLINKARM_DEBUG_INFO_NVIC_ADDR_INDEX)
T0B1C 000:219.698   Value=0xE000E000
T0B1C 000:219.707 - 0.018ms returns 0x00
T0B1C 000:219.715 JLINK_GetDebugInfo(0x10C = JLINKARM_DEBUG_INFO_DBG_ADDR_INDEX)
T0B1C 000:219.721   Value=0xE000EDF0
T0B1C 000:219.729 - 0.017ms returns 0x00
T0B1C 000:219.737 JLINK_GetDebugInfo(0x01 = Unknown)
T0B1C 000:219.748   Value=0x00000000
T0B1C 000:219.756 - 0.022ms returns 0x00
T0B1C 000:219.768 JLINK_ReadMemU32(0xE000ED00, 0x0001 Items, ...)
T0B1C 000:219.779   CPU_ReadMem(4 bytes @ 0xE000ED00)
T0B1C 000:220.033   Data:  31 C2 1F 41
T0B1C 000:220.056    - CPUID
T0B1C 000:220.065 - 0.300ms returns 1
T0B1C 000:220.075 JLINK_GetDebugInfo(0x10F = JLINKARM_DEBUG_INFO_HAS_CORTEX_M_SECURITY_EXT_INDEX)
T0B1C 000:220.082   Value=0x00000000
T0B1C 000:220.091 - 0.018ms returns 0x00
T0B1C 000:220.102 JLINK_SetResetType(JLINKARM_CM3_RESET_TYPE_NORMAL)
T0B1C 000:220.108 - 0.009ms returns JLINKARM_CM3_RESET_TYPE_NORMAL
T0B1C 000:220.116 JLINK_Reset()
T0B1C 000:220.137   CPU is running
T0B1C 000:220.148   CPU_WriteMem(4 bytes @ 0xE000EDF0)
T0B1C 000:220.430   CPU is running
T0B1C 000:220.444   CPU_WriteMem(4 bytes @ 0xE000EDFC)
T0B1C 000:224.180   Reset: Halt core after reset via DEMCR.VC_CORERESET.
T0B1C 000:227.724   Reset: Reset device via AIRCR.SYSRESETREQ.
T0B1C 000:227.750   CPU is running
T0B1C 000:227.762   CPU_WriteMem(4 bytes @ 0xE000ED0C)
T0B1C 000:280.508   CPU_ReadMem(4 bytes @ 0xE000EDF0)
T0B1C 000:280.815   CPU_ReadMem(4 bytes @ 0xE000EDF0)
T0B1C 000:281.100   CPU is running
T0B1C 000:281.118   CPU_WriteMem(4 bytes @ 0xE000EDF0)
T0B1C 000:281.433   CPU is running
T0B1C 000:281.450   CPU_WriteMem(4 bytes @ 0xE000EDFC)
T0B1C 000:287.573   CPU_ReadMem(4 bytes @ 0xE000EDF0)
T0B1C 000:289.263   CPU_WriteMem(4 bytes @ 0xE000EDFC)
T0B1C 000:289.556   CPU_WriteMem(4 bytes @ 0xE0001028)
T0B1C 000:289.840   CPU_WriteMem(4 bytes @ 0xE0001038)
T0B1C 000:290.192   CPU_WriteMem(4 bytes @ 0xE0001048)
T0B1C 000:290.492   CPU_WriteMem(4 bytes @ 0xE0001058)
T0B1C 000:290.784   CPU_WriteMem(4 bytes @ 0xE0002000)
T0B1C 000:291.070   CPU_ReadMem(4 bytes @ 0xE000EDFC)
T0B1C 000:291.381   CPU_ReadMem(4 bytes @ 0xE0001000)
T0B1C 000:291.699 - 71.592ms
T0B1C 000:291.724 JLINK_Halt()
T0B1C 000:291.732 - 0.012ms returns 0x00
T0B1C 000:291.743 JLINK_ReadMemU32(0xE000EDF0, 0x0001 Items, ...)
T0B1C 000:291.758   CPU_ReadMem(4 bytes @ 0xE000EDF0)
T0B1C 000:292.039   Data:  03 00 03 00
T0B1C 000:292.055    - DHCSR
T0B1C 000:292.066 - 0.326ms returns 1
T0B1C 000:292.082 JLINK_WriteU32(0xE000EDF0, 0xA05F0003)
T0B1C 000:292.090    - DHCSR
T0B1C 000:292.118   CPU_WriteMem(4 bytes @ 0xE000EDF0)
T0B1C 000:292.391 - 0.318ms returns 0
T0B1C 000:292.411 JLINK_WriteU32(0xE000EDFC, 0x01000000)
T0B1C 000:292.420    - DEMCR
T0B1C 000:292.436   CPU_WriteMem(4 bytes @ 0xE000EDFC)
T0B1C 000:292.696 - 0.306ms returns 0
T0B1C 000:311.801 JLINK_GetHWStatus(...)
T0B1C 000:312.030 - 0.239ms returns 0x00
T0B1C 000:324.539 JLINK_GetNumBPUnits(Type = 0xFFFFFF00)
T0B1C 000:324.563 - 0.027ms returns 0x06
T0B1C 000:324.572 JLINK_GetNumBPUnits(Type = 0xF0)
T0B1C 000:324.579 - 0.010ms returns 0x2000
T0B1C 000:324.587 JLINK_GetNumWPUnits()
T0B1C 000:324.594 - 0.009ms returns 0x04
T0B1C 000:335.640 JLINK_GetSpeed()
T0B1C 000:335.661 - 0.025ms returns 0x2710
T0B1C 000:343.851 JLINK_ReadMemU32(0xE000E004, 0x0001 Items, ...)
T0B1C 000:343.883   CPU_ReadMem(4 bytes @ 0xE000E004)
T0B1C 000:344.180   Data:  01 00 00 00
T0B1C 000:344.194 - 0.346ms returns 1
T0B1C 000:344.205 JLINK_ReadMemU32(0xE000E004, 0x0001 Items, ...)
T0B1C 000:344.215   CPU_ReadMem(4 bytes @ 0xE000E004)
T0B1C 000:344.496   Data:  01 00 00 00
T0B1C 000:344.509 - 0.307ms returns 1
T0B1C 000:344.522 JLINK_WriteMemEx(0xE0001000, 0x001C Bytes, ..., Flags = 0x02000004)
T0B1C 000:344.530   Data:  01 00 00 00 00 00 00 00 00 00 00 00 00 00 00 00 ...
T0B1C 000:345.006   CPU_WriteMem(28 bytes @ 0xE0001000)
T0B1C 000:345.302 - 0.787ms returns 0x1C
T0B1C 000:345.323 JLINK_Halt()
T0B1C 000:345.330 - 0.010ms returns 0x00
T0B1C 000:345.338 JLINK_IsHalted()
T0B1C 000:345.345 - 0.010ms returns TRUE
T0B1C 000:348.447 JLINK_WriteMem(0x20000000, 0x0164 Bytes, ...)
T0B1C 000:348.458   Data:  00 BE 0A E0 0D 78 2D 06 68 40 08 24 40 00 00 D3 ...
T0B1C 000:348.905   CPU_WriteMem(356 bytes @ 0x20000000)
T0B1C 000:349.988 - 1.548ms returns 0x164
T0B1C 000:350.023 JLINK_WriteReg(R0, 0x08000000)
T0B1C 000:350.034 - 0.014ms returns 0x00
T0B1C 000:350.042 JLINK_WriteReg(R1, 0x00B71B00)
T0B1C 000:350.049 - 0.010ms returns 0x00
T0B1C 000:350.058 JLINK_WriteReg(R2, 0x00000001)
T0B1C 000:350.065 - 0.012ms returns 0x00
T0B1C 000:350.077 JLINK_WriteReg(R3, 0x00000000)
T0B1C 000:350.084 - 0.010ms returns 0x00
T0B1C 000:350.092 JLINK_WriteReg(R4, 0x00000000)
T0B1C 000:350.099 - 0.010ms returns 0x00
T0B1C 000:350.107 JLINK_WriteReg(R5, 0x00000000)
T0B1C 000:350.114 - 0.010ms returns 0x00
T0B1C 000:350.122 JLINK_WriteReg(R6, 0x00000000)
T0B1C 000:350.129 - 0.010ms returns 0x00
T0B1C 000:350.137 JLINK_WriteReg(R7, 0x00000000)
T0B1C 000:350.144 - 0.010ms returns 0x00
T0B1C 000:350.152 JLINK_WriteReg(R8, 0x00000000)
T0B1C 000:350.159 - 0.010ms returns 0x00
T0B1C 000:350.167 JLINK_WriteReg(R9, 0x20000160)
T0B1C 000:350.174 - 0.010ms returns 0x00
T0B1C 000:350.182 JLINK_WriteReg(R10, 0x00000000)
T0B1C 000:350.189 - 0.010ms returns 0x00
T0B1C 000:350.197 JLINK_WriteReg(R11, 0x00000000)
T0B1C 000:350.204 - 0.010ms returns 0x00
T0B1C 000:350.212 JLINK_WriteReg(R12, 0x00000000)
T0B1C 000:350.219 - 0.010ms returns 0x00
T0B1C 000:350.227 JLINK_WriteReg(R13 (SP), 0x20001000)
T0B1C 000:350.235 - 0.011ms returns 0x00
T0B1C 000:350.243 JLINK_WriteReg(R14, 0x20000001)
T0B1C 000:350.250 - 0.010ms returns 0x00
T0B1C 000:350.258 JLINK_WriteReg(R15 (PC), 0x20000038)
T0B1C 000:350.265 - 0.010ms returns 0x00
T0B1C 000:350.273 JLINK_WriteReg(XPSR, 0x01000000)
T0B1C 000:350.280 - 0.010ms returns 0x00
T0B1C 000:350.289 JLINK_WriteReg(MSP, 0x20001000)
T0B1C 000:350.295 - 0.010ms returns 0x00
T0B1C 000:350.304 JLINK_WriteReg(PSP, 0x20001000)
T0B1C 000:350.311 - 0.010ms returns 0x00
T0B1C 000:350.319 JLINK_WriteReg(CFBP, 0x00000000)
T0B1C 000:350.326 - 0.010ms returns 0x00
T0B1C 000:350.335   JLINK_SetBPEx(Addr = 0x20000000, Type = 0xFFFFFFF2)
T0B1C 000:350.348   CPU_ReadMem(2 bytes @ 0x20000000)
T0B1C 000:350.635 - 0.308ms returns 0x00000001
T0B1C 000:350.650 JLINK_Go()
T0B1C 000:350.660   CPU_WriteMem(2 bytes @ 0x20000000)
T0B1C 000:350.922   CPU_ReadMem(4 bytes @ 0xE0001000)
T0B1C 000:351.204   CPU_WriteMem(4 bytes @ 0xE0002008)
T0B1C 000:351.218   CPU_WriteMem(4 bytes @ 0xE000200C)
T0B1C 000:351.228   CPU_WriteMem(4 bytes @ 0xE0002010)
T0B1C 000:351.238   CPU_WriteMem(4 bytes @ 0xE0002014)
T0B1C 000:351.247   CPU_WriteMem(4 bytes @ 0xE0002018)
T0B1C 000:351.256   CPU_WriteMem(4 bytes @ 0xE000201C)
T0B1C 000:352.093   CPU_WriteMem(4 bytes @ 0xE0001004)
T0B1C 000:353.596 - 2.953ms
T0B1C 000:353.611 JLINK_IsHalted()
T0B1C 000:354.827   CPU_ReadMem(2 bytes @ 0x20000000)
T0B1C 000:355.078 - 1.474ms returns TRUE
T0B1C 000:355.094 JLINK_ReadReg(R15 (PC))
T0B1C 000:355.102 - 0.012ms returns 0x20000000
T0B1C 000:355.111 JLINK_ClrBPEx(BPHandle = 0x00000001)
T0B1C 000:355.119 - 0.011ms returns 0x00
T0B1C 000:355.128 JLINK_ReadReg(R0)
T0B1C 000:355.135 - 0.010ms returns 0x00000000
T0B1C 000:355.414 JLINK_WriteReg(R0, 0x08000000)
T0B1C 000:355.426 - 0.016ms returns 0x00
T0B1C 000:355.435 JLINK_WriteReg(R1, 0x00B71B00)
T0B1C 000:355.442 - 0.010ms returns 0x00
T0B1C 000:355.450 JLINK_WriteReg(R2, 0x00000001)
T0B1C 000:355.457 - 0.010ms returns 0x00
T0B1C 000:355.465 JLINK_WriteReg(R3, 0x00000000)
T0B1C 000:355.472 - 0.009ms returns 0x00
T0B1C 000:355.480 JLINK_WriteReg(R4, 0x00000000)
T0B1C 000:355.487 - 0.010ms returns 0x00
T0B1C 000:355.495 JLINK_WriteReg(R5, 0x00000000)
T0B1C 000:355.502 - 0.010ms returns 0x00
T0B1C 000:355.510 JLINK_WriteReg(R6, 0x00000000)
T0B1C 000:355.517 - 0.010ms returns 0x00
T0B1C 000:355.525 JLINK_WriteReg(R7, 0x00000000)
T0B1C 000:355.532 - 0.009ms returns 0x00
T0B1C 000:355.540 JLINK_WriteReg(R8, 0x00000000)
T0B1C 000:355.547 - 0.010ms returns 0x00
T0B1C 000:355.555 JLINK_WriteReg(R9, 0x20000160)
T0B1C 000:355.562 - 0.009ms returns 0x00
T0B1C 000:355.570 JLINK_WriteReg(R10, 0x00000000)
T0B1C 000:355.577 - 0.010ms returns 0x00
T0B1C 000:355.585 JLINK_WriteReg(R11, 0x00000000)
T0B1C 000:355.592 - 0.010ms returns 0x00
T0B1C 000:355.600 JLINK_WriteReg(R12, 0x00000000)
T0B1C 000:355.607 - 0.010ms returns 0x00
T0B1C 000:355.615 JLINK_WriteReg(R13 (SP), 0x20001000)
T0B1C 000:355.623 - 0.010ms returns 0x00
T0B1C 000:355.631 JLINK_WriteReg(R14, 0x20000001)
T0B1C 000:355.679 - 0.053ms returns 0x00
T0B1C 000:355.690 JLINK_WriteReg(R15 (PC), 0x2000007C)
T0B1C 000:355.697 - 0.010ms returns 0x00
T0B1C 000:355.705 JLINK_WriteReg(XPSR, 0x01000000)
T0B1C 000:355.712 - 0.010ms returns 0x00
T0B1C 000:355.720 JLINK_WriteReg(MSP, 0x20001000)
T0B1C 000:355.727 - 0.010ms returns 0x00
T0B1C 000:355.736 JLINK_WriteReg(PSP, 0x20001000)
T0B1C 000:355.742 - 0.010ms returns 0x00
T0B1C 000:355.751 JLINK_WriteReg(CFBP, 0x00000000)
T0B1C 000:355.758 - 0.010ms returns 0x00
T0B1C 000:355.767   JLINK_SetBPEx(Addr = 0x20000000, Type = 0xFFFFFFF2)
T0B1C 000:355.777 - 0.014ms returns 0x00000002
T0B1C 000:355.785 JLINK_Go()
T0B1C 000:355.797   CPU_ReadMem(4 bytes @ 0xE0001000)
T0B1C 000:357.304 - 1.526ms
T0B1C 000:357.320 JLINK_IsHalted()
T0B1C 000:357.538 - 0.226ms returns FALSE
T0B1C 000:371.311 JLINK_IsHalted()
T0B1C 000:371.598 - 0.295ms returns FALSE
T0B1C 000:373.318 JLINK_IsHalted()
T0B1C 000:373.546 - 0.235ms returns FALSE
T0B1C 000:375.358 JLINK_IsHalted()
T0B1C 000:375.592 - 0.241ms returns FALSE
T0B1C 000:377.330 JLINK_IsHalted()
T0B1C 000:377.561 - 0.238ms returns FALSE
T0B1C 000:379.285 JLINK_IsHalted()
T0B1C 000:380.516   CPU_ReadMem(2 bytes @ 0x20000000)
T0B1C 000:380.799 - 1.521ms returns TRUE
T0B1C 000:380.815 JLINK_ReadReg(R15 (PC))
T0B1C 000:380.824 - 0.013ms returns 0x20000000
T0B1C 000:380.834 JLINK_ClrBPEx(BPHandle = 0x00000002)
T0B1C 000:380.842 - 0.011ms returns 0x00
T0B1C 000:380.852 JLINK_ReadReg(R0)
T0B1C 000:380.859 - 0.011ms returns 0x00000000
T0B1C 000:433.383 JLINK_WriteReg(R0, 0x00000001)
T0B1C 000:433.411 - 0.034ms returns 0x00
T0B1C 000:433.422 JLINK_WriteReg(R1, 0x00B71B00)
T0B1C 000:433.430 - 0.012ms returns 0x00
T0B1C 000:433.440 JLINK_WriteReg(R2, 0x00000001)
T0B1C 000:433.448 - 0.011ms returns 0x00
T0B1C 000:433.458 JLINK_WriteReg(R3, 0x00000000)
T0B1C 000:433.465 - 0.011ms returns 0x00
T0B1C 000:433.475 JLINK_WriteReg(R4, 0x00000000)
T0B1C 000:433.483 - 0.011ms returns 0x00
T0B1C 000:433.492 JLINK_WriteReg(R5, 0x00000000)
T0B1C 000:433.500 - 0.011ms returns 0x00
T0B1C 000:433.510 JLINK_WriteReg(R6, 0x00000000)
T0B1C 000:433.517 - 0.011ms returns 0x00
T0B1C 000:433.527 JLINK_WriteReg(R7, 0x00000000)
T0B1C 000:433.535 - 0.011ms returns 0x00
T0B1C 000:433.544 JLINK_WriteReg(R8, 0x00000000)
T0B1C 000:433.552 - 0.011ms returns 0x00
T0B1C 000:433.562 JLINK_WriteReg(R9, 0x20000160)
T0B1C 000:433.570 - 0.011ms returns 0x00
T0B1C 000:433.579 JLINK_WriteReg(R10, 0x00000000)
T0B1C 000:433.587 - 0.011ms returns 0x00
T0B1C 000:433.597 JLINK_WriteReg(R11, 0x00000000)
T0B1C 000:433.605 - 0.011ms returns 0x00
T0B1C 000:433.615 JLINK_WriteReg(R12, 0x00000000)
T0B1C 000:433.622 - 0.011ms returns 0x00
T0B1C 000:433.632 JLINK_WriteReg(R13 (SP), 0x20001000)
T0B1C 000:433.641 - 0.012ms returns 0x00
T0B1C 000:433.651 JLINK_WriteReg(R14, 0x20000001)
T0B1C 000:433.659 - 0.011ms returns 0x00
T0B1C 000:433.668 JLINK_WriteReg(R15 (PC), 0x2000006A)
T0B1C 000:433.676 - 0.012ms returns 0x00
T0B1C 000:433.686 JLINK_WriteReg(XPSR, 0x01000000)
T0B1C 000:433.694 - 0.011ms returns 0x00
T0B1C 000:433.704 JLINK_WriteReg(MSP, 0x20001000)
T0B1C 000:433.712 - 0.011ms returns 0x00
T0B1C 000:433.721 JLINK_WriteReg(PSP, 0x20001000)
T0B1C 000:433.729 - 0.011ms returns 0x00
T0B1C 000:433.739 JLINK_WriteReg(CFBP, 0x00000000)
T0B1C 000:433.747 - 0.011ms returns 0x00
T0B1C 000:433.757   JLINK_SetBPEx(Addr = 0x20000000, Type = 0xFFFFFFF2)
T0B1C 000:433.770 - 0.017ms returns 0x00000003
T0B1C 000:433.780 JLINK_Go()
T0B1C 000:433.812   CPU_ReadMem(4 bytes @ 0xE0001000)
T0B1C 000:435.391 - 1.622ms
T0B1C 000:435.412 JLINK_IsHalted()
T0B1C 000:436.647   CPU_ReadMem(2 bytes @ 0x20000000)
T0B1C 000:436.936 - 1.533ms returns TRUE
T0B1C 000:436.954 JLINK_ReadReg(R15 (PC))
T0B1C 000:436.965 - 0.015ms returns 0x20000000
T0B1C 000:436.976 JLINK_ClrBPEx(BPHandle = 0x00000003)
T0B1C 000:436.985 - 0.012ms returns 0x00
T0B1C 000:436.995 JLINK_ReadReg(R0)
T0B1C 000:437.004 - 0.012ms returns 0x00000000
T0B1C 000:445.432 JLINK_WriteMem(0x20000000, 0x0164 Bytes, ...)
T0B1C 000:445.452   Data:  00 BE 0A E0 0D 78 2D 06 68 40 08 24 40 00 00 D3 ...
T0B1C 000:445.476   CPU_WriteMem(356 bytes @ 0x20000000)
T0B1C 000:446.649 - 1.228ms returns 0x164
T0B1C 000:446.693 JLINK_WriteReg(R0, 0x08000000)
T0B1C 000:446.706 - 0.017ms returns 0x00
T0B1C 000:446.716 JLINK_WriteReg(R1, 0x00B71B00)
T0B1C 000:446.724 - 0.012ms returns 0x00
T0B1C 000:446.734 JLINK_WriteReg(R2, 0x00000002)
T0B1C 000:446.742 - 0.025ms returns 0x00
T0B1C 000:446.765 JLINK_WriteReg(R3, 0x00000000)
T0B1C 000:446.772 - 0.011ms returns 0x00
T0B1C 000:446.782 JLINK_WriteReg(R4, 0x00000000)
T0B1C 000:446.789 - 0.010ms returns 0x00
T0B1C 000:446.798 JLINK_WriteReg(R5, 0x00000000)
T0B1C 000:446.805 - 0.010ms returns 0x00
T0B1C 000:446.814 JLINK_WriteReg(R6, 0x00000000)
T0B1C 000:446.822 - 0.011ms returns 0x00
T0B1C 000:446.831 JLINK_WriteReg(R7, 0x00000000)
T0B1C 000:446.838 - 0.010ms returns 0x00
T0B1C 000:446.847 JLINK_WriteReg(R8, 0x00000000)
T0B1C 000:446.854 - 0.011ms returns 0x00
T0B1C 000:446.863 JLINK_WriteReg(R9, 0x20000160)
T0B1C 000:446.871 - 0.010ms returns 0x00
T0B1C 000:446.880 JLINK_WriteReg(R10, 0x00000000)
T0B1C 000:446.887 - 0.011ms returns 0x00
T0B1C 000:446.896 JLINK_WriteReg(R11, 0x00000000)
T0B1C 000:446.904 - 0.011ms returns 0x00
T0B1C 000:446.913 JLINK_WriteReg(R12, 0x00000000)
T0B1C 000:446.920 - 0.010ms returns 0x00
T0B1C 000:446.929 JLINK_WriteReg(R13 (SP), 0x20001000)
T0B1C 000:446.938 - 0.011ms returns 0x00
T0B1C 000:446.947 JLINK_WriteReg(R14, 0x20000001)
T0B1C 000:446.954 - 0.011ms returns 0x00
T0B1C 000:446.963 JLINK_WriteReg(R15 (PC), 0x20000038)
T0B1C 000:446.971 - 0.011ms returns 0x00
T0B1C 000:446.980 JLINK_WriteReg(XPSR, 0x01000000)
T0B1C 000:446.987 - 0.011ms returns 0x00
T0B1C 000:446.996 JLINK_WriteReg(MSP, 0x20001000)
T0B1C 000:447.004 - 0.011ms returns 0x00
T0B1C 000:447.013 JLINK_WriteReg(PSP, 0x20001000)
T0B1C 000:447.020 - 0.010ms returns 0x00
T0B1C 000:447.029 JLINK_WriteReg(CFBP, 0x00000000)
T0B1C 000:447.037 - 0.011ms returns 0x00
T0B1C 000:447.047   JLINK_SetBPEx(Addr = 0x20000000, Type = 0xFFFFFFF2)
T0B1C 000:447.061   CPU_ReadMem(2 bytes @ 0x20000000)
T0B1C 000:447.356 - 0.319ms returns 0x00000004
T0B1C 000:447.374 JLINK_Go()
T0B1C 000:447.386   CPU_WriteMem(2 bytes @ 0x20000000)
T0B1C 000:447.685   CPU_ReadMem(4 bytes @ 0xE0001000)
T0B1C 000:449.384 - 2.018ms
T0B1C 000:449.405 JLINK_IsHalted()
T0B1C 000:450.693   CPU_ReadMem(2 bytes @ 0x20000000)
T0B1C 000:451.005 - 1.609ms returns TRUE
T0B1C 000:451.027 JLINK_ReadReg(R15 (PC))
T0B1C 000:451.037 - 0.014ms returns 0x20000000
T0B1C 000:451.047 JLINK_ClrBPEx(BPHandle = 0x00000004)
T0B1C 000:451.056 - 0.012ms returns 0x00
T0B1C 000:451.154 JLINK_ReadReg(R0)
T0B1C 000:451.170 - 0.021ms returns 0x00000000
T0B1C 000:451.832 JLINK_WriteMem(0x20000164, 0x029C Bytes, ...)
T0B1C 000:451.847   Data:  18 47 00 20 45 01 00 08 5B 12 00 08 75 09 00 08 ...
T0B1C 000:451.867   CPU_WriteMem(668 bytes @ 0x20000164)
T0B1C 000:453.580 - 1.757ms returns 0x29C
T0B1C 000:453.598 JLINK_WriteMem(0x20000400, 0x0164 Bytes, ...)
T0B1C 000:453.607   Data:  70 47 00 BF 00 00 02 40 2D E9 F0 43 02 68 47 F6 ...
T0B1C 000:453.628   CPU_WriteMem(356 bytes @ 0x20000400)
T0B1C 000:454.786 - 1.197ms returns 0x164
T0B1C 000:454.808 JLINK_WriteReg(R0, 0x08000000)
T0B1C 000:454.820 - 0.015ms returns 0x00
T0B1C 000:454.830 JLINK_WriteReg(R1, 0x00000400)
T0B1C 000:454.838 - 0.011ms returns 0x00
T0B1C 000:454.847 JLINK_WriteReg(R2, 0x20000164)
T0B1C 000:454.855 - 0.011ms returns 0x00
T0B1C 000:454.864 JLINK_WriteReg(R3, 0x00000000)
T0B1C 000:454.872 - 0.011ms returns 0x00
T0B1C 000:454.881 JLINK_WriteReg(R4, 0x00000000)
T0B1C 000:454.888 - 0.011ms returns 0x00
T0B1C 000:454.897 JLINK_WriteReg(R5, 0x00000000)
T0B1C 000:454.905 - 0.010ms returns 0x00
T0B1C 000:454.914 JLINK_WriteReg(R6, 0x00000000)
T0B1C 000:454.921 - 0.011ms returns 0x00
T0B1C 000:454.930 JLINK_WriteReg(R7, 0x00000000)
T0B1C 000:454.938 - 0.010ms returns 0x00
T0B1C 000:454.947 JLINK_WriteReg(R8, 0x00000000)
T0B1C 000:454.957 - 0.016ms returns 0x00
T0B1C 000:454.968 JLINK_WriteReg(R9, 0x20000160)
T0B1C 000:454.976 - 0.011ms returns 0x00
T0B1C 000:454.985 JLINK_WriteReg(R10, 0x00000000)
T0B1C 000:454.993 - 0.011ms returns 0x00
T0B1C 000:455.002 JLINK_WriteReg(R11, 0x00000000)
T0B1C 000:455.009 - 0.011ms returns 0x00
T0B1C 000:455.018 JLINK_WriteReg(R12, 0x00000000)
T0B1C 000:455.026 - 0.011ms returns 0x00
T0B1C 000:455.035 JLINK_WriteReg(R13 (SP), 0x20001000)
T0B1C 000:455.043 - 0.011ms returns 0x00
T0B1C 000:455.052 JLINK_WriteReg(R14, 0x20000001)
T0B1C 000:455.062 - 0.013ms returns 0x00
T0B1C 000:455.072 JLINK_WriteReg(R15 (PC), 0x200000F4)
T0B1C 000:455.080 - 0.011ms returns 0x00
T0B1C 000:455.089 JLINK_WriteReg(XPSR, 0x01000000)
T0B1C 000:455.096 - 0.011ms returns 0x00
T0B1C 000:455.105 JLINK_WriteReg(MSP, 0x20001000)
T0B1C 000:455.113 - 0.011ms returns 0x00
T0B1C 000:455.122 JLINK_WriteReg(PSP, 0x20001000)
T0B1C 000:455.130 - 0.011ms returns 0x00
T0B1C 000:455.139 JLINK_WriteReg(CFBP, 0x00000000)
T0B1C 000:455.146 - 0.011ms returns 0x00
T0B1C 000:455.156   JLINK_SetBPEx(Addr = 0x20000000, Type = 0xFFFFFFF2)
T0B1C 000:455.168 - 0.016ms returns 0x00000005
T0B1C 000:455.177 JLINK_Go()
T0B1C 000:455.190   CPU_ReadMem(4 bytes @ 0xE0001000)
T0B1C 000:456.819 - 1.652ms
T0B1C 000:456.839 JLINK_IsHalted()
T0B1C 000:457.079 - 0.248ms returns FALSE
T0B1C 000:461.133 JLINK_IsHalted()
T0B1C 000:461.408 - 0.284ms returns FALSE
T0B1C 000:464.092 JLINK_IsHalted()
T0B1C 000:464.381 - 0.298ms returns FALSE
T0B1C 000:466.088 JLINK_IsHalted()
T0B1C 000:466.382 - 0.303ms returns FALSE
T0B1C 000:468.037 JLINK_IsHalted()
T0B1C 000:468.339 - 0.310ms returns FALSE
T0B1C 000:470.078 JLINK_IsHalted()
T0B1C 000:470.349 - 0.280ms returns FALSE
T0B1C 000:473.073 JLINK_IsHalted()
T0B1C 000:473.354 - 0.290ms returns FALSE
T0B1C 000:475.023 JLINK_IsHalted()
T0B1C 000:475.350 - 0.336ms returns FALSE
T0B1C 000:477.058 JLINK_IsHalted()
T0B1C 000:477.353 - 0.304ms returns FALSE
T0B1C 000:479.056 JLINK_IsHalted()
T0B1C 000:479.349 - 0.302ms returns FALSE
T0B1C 000:481.051 JLINK_IsHalted()
T0B1C 000:481.349 - 0.307ms returns FALSE
T0B1C 000:483.072 JLINK_IsHalted()
T0B1C 000:483.351 - 0.289ms returns FALSE
T0B1C 000:485.044 JLINK_IsHalted()
T0B1C 000:485.353 - 0.319ms returns FALSE
T0B1C 000:487.030 JLINK_IsHalted()
T0B1C 000:487.352 - 0.332ms returns FALSE
T0B1C 000:489.031 JLINK_IsHalted()
T0B1C 000:490.422   CPU_ReadMem(2 bytes @ 0x20000000)
T0B1C 000:490.746 - 1.724ms returns TRUE
T0B1C 000:490.765 JLINK_ReadReg(R15 (PC))
T0B1C 000:490.776 - 0.015ms returns 0x20000000
T0B1C 000:490.787 JLINK_ClrBPEx(BPHandle = 0x00000005)
T0B1C 000:490.796 - 0.012ms returns 0x00
T0B1C 000:490.806 JLINK_ReadReg(R0)
T0B1C 000:490.814 - 0.011ms returns 0x00000000
T0B1C 000:491.391 JLINK_WriteMem(0x20000164, 0x029C Bytes, ...)
T0B1C 000:491.405   Data:  00 F0 AA FA 01 28 05 D1 04 F5 80 60 20 21 03 22 ...
T0B1C 000:491.424   CPU_WriteMem(668 bytes @ 0x20000164)
T0B1C 000:493.208 - 1.826ms returns 0x29C
T0B1C 000:493.228 JLINK_WriteMem(0x20000400, 0x0164 Bytes, ...)
T0B1C 000:493.236   Data:  01 46 38 70 23 48 04 F0 9F FB 09 B0 F0 BD 00 BF ...
T0B1C 000:493.254   CPU_WriteMem(356 bytes @ 0x20000400)
T0B1C 000:494.388 - 1.170ms returns 0x164
T0B1C 000:494.412 JLINK_WriteReg(R0, 0x08000400)
T0B1C 000:494.423 - 0.015ms returns 0x00
T0B1C 000:494.433 JLINK_WriteReg(R1, 0x00000400)
T0B1C 000:494.442 - 0.012ms returns 0x00
T0B1C 000:494.451 JLINK_WriteReg(R2, 0x20000164)
T0B1C 000:494.459 - 0.011ms returns 0x00
T0B1C 000:494.469 JLINK_WriteReg(R3, 0x00000000)
T0B1C 000:494.477 - 0.011ms returns 0x00
T0B1C 000:494.486 JLINK_WriteReg(R4, 0x00000000)
T0B1C 000:494.494 - 0.011ms returns 0x00
T0B1C 000:494.503 JLINK_WriteReg(R5, 0x00000000)
T0B1C 000:494.511 - 0.011ms returns 0x00
T0B1C 000:494.521 JLINK_WriteReg(R6, 0x00000000)
T0B1C 000:494.529 - 0.011ms returns 0x00
T0B1C 000:494.538 JLINK_WriteReg(R7, 0x00000000)
T0B1C 000:494.546 - 0.011ms returns 0x00
T0B1C 000:494.555 JLINK_WriteReg(R8, 0x00000000)
T0B1C 000:494.566 - 0.016ms returns 0x00
T0B1C 000:494.577 JLINK_WriteReg(R9, 0x20000160)
T0B1C 000:494.585 - 0.011ms returns 0x00
T0B1C 000:494.595 JLINK_WriteReg(R10, 0x00000000)
T0B1C 000:494.602 - 0.012ms returns 0x00
T0B1C 000:494.612 JLINK_WriteReg(R11, 0x00000000)
T0B1C 000:494.620 - 0.011ms returns 0x00
T0B1C 000:494.629 JLINK_WriteReg(R12, 0x00000000)
T0B1C 000:494.637 - 0.011ms returns 0x00
T0B1C 000:494.647 JLINK_WriteReg(R13 (SP), 0x20001000)
T0B1C 000:494.655 - 0.012ms returns 0x00
T0B1C 000:494.665 JLINK_WriteReg(R14, 0x20000001)
T0B1C 000:494.673 - 0.011ms returns 0x00
T0B1C 000:494.682 JLINK_WriteReg(R15 (PC), 0x200000F4)
T0B1C 000:494.690 - 0.011ms returns 0x00
T0B1C 000:494.699 JLINK_WriteReg(XPSR, 0x01000000)
T0B1C 000:494.707 - 0.011ms returns 0x00
T0B1C 000:494.717 JLINK_WriteReg(MSP, 0x20001000)
T0B1C 000:494.724 - 0.011ms returns 0x00
T0B1C 000:494.734 JLINK_WriteReg(PSP, 0x20001000)
T0B1C 000:494.742 - 0.011ms returns 0x00
T0B1C 000:494.751 JLINK_WriteReg(CFBP, 0x00000000)
T0B1C 000:494.759 - 0.011ms returns 0x00
T0B1C 000:494.769   JLINK_SetBPEx(Addr = 0x20000000, Type = 0xFFFFFFF2)
T0B1C 000:494.781 - 0.016ms returns 0x00000006
T0B1C 000:494.791 JLINK_Go()
T0B1C 000:494.805   CPU_ReadMem(4 bytes @ 0xE0001000)
T0B1C 000:496.461 - 1.680ms
T0B1C 000:496.480 JLINK_IsHalted()
T0B1C 000:496.775 - 0.304ms returns FALSE
T0B1C 000:497.994 JLINK_IsHalted()
T0B1C 000:498.256 - 0.270ms returns FALSE
T0B1C 000:499.962 JLINK_IsHalted()
T0B1C 000:500.217 - 0.264ms returns FALSE
T0B1C 000:501.981 JLINK_IsHalted()
T0B1C 000:502.329 - 0.356ms returns FALSE
T0B1C 000:503.975 JLINK_IsHalted()
T0B1C 000:504.338 - 0.372ms returns FALSE
T0B1C 000:505.941 JLINK_IsHalted()
T0B1C 000:506.235 - 0.303ms returns FALSE
T0B1C 000:507.977 JLINK_IsHalted()
T0B1C 000:508.337 - 0.369ms returns FALSE
T0B1C 000:509.969 JLINK_IsHalted()
T0B1C 000:510.269 - 0.309ms returns FALSE
T0B1C 000:511.953 JLINK_IsHalted()
T0B1C 000:512.230 - 0.286ms returns FALSE
T0B1C 000:513.959 JLINK_IsHalted()
T0B1C 000:514.241 - 0.292ms returns FALSE
T0B1C 000:515.955 JLINK_IsHalted()
T0B1C 000:516.239 - 0.294ms returns FALSE
T0B1C 000:517.947 JLINK_IsHalted()
T0B1C 000:518.228 - 0.291ms returns FALSE
T0B1C 000:519.944 JLINK_IsHalted()
T0B1C 000:520.231 - 0.296ms returns FALSE
T0B1C 000:521.947 JLINK_IsHalted()
T0B1C 000:522.248 - 0.311ms returns FALSE
T0B1C 000:523.854 JLINK_IsHalted()
T0B1C 000:524.132 - 0.289ms returns FALSE
T0B1C 000:525.953 JLINK_IsHalted()
T0B1C 000:526.272 - 0.328ms returns FALSE
T0B1C 000:528.925 JLINK_IsHalted()
T0B1C 000:530.261   CPU_ReadMem(2 bytes @ 0x20000000)
T0B1C 000:530.590 - 1.674ms returns TRUE
T0B1C 000:530.613 JLINK_ReadReg(R15 (PC))
T0B1C 000:530.625 - 0.016ms returns 0x20000000
T0B1C 000:530.636 JLINK_ClrBPEx(BPHandle = 0x00000006)
T0B1C 000:530.645 - 0.013ms returns 0x00
T0B1C 000:530.658 JLINK_ReadReg(R0)
T0B1C 000:530.666 - 0.012ms returns 0x00000000
T0B1C 000:531.257 JLINK_WriteMem(0x20000164, 0x029C Bytes, ...)
T0B1C 000:531.271   Data:  2A 2A 2A 0D 00 00 00 00 20 D4 DA CD E2 B2 BF 53 ...
T0B1C 000:531.290   CPU_WriteMem(668 bytes @ 0x20000164)
T0B1C 000:533.026 - 1.779ms returns 0x29C
T0B1C 000:533.046 JLINK_WriteMem(0x20000400, 0x0164 Bytes, ...)
T0B1C 000:533.055   Data:  1F E0 EB 88 4B F6 FF 76 B3 42 04 D1 02 EB 42 02 ...
T0B1C 000:533.072   CPU_WriteMem(356 bytes @ 0x20000400)
T0B1C 000:534.233 - 1.197ms returns 0x164
T0B1C 000:534.257 JLINK_WriteReg(R0, 0x08000800)
T0B1C 000:534.269 - 0.016ms returns 0x00
T0B1C 000:534.279 JLINK_WriteReg(R1, 0x00000400)
T0B1C 000:534.288 - 0.012ms returns 0x00
T0B1C 000:534.298 JLINK_WriteReg(R2, 0x20000164)
T0B1C 000:534.306 - 0.012ms returns 0x00
T0B1C 000:534.316 JLINK_WriteReg(R3, 0x00000000)
T0B1C 000:534.324 - 0.011ms returns 0x00
T0B1C 000:534.334 JLINK_WriteReg(R4, 0x00000000)
T0B1C 000:534.342 - 0.012ms returns 0x00
T0B1C 000:534.351 JLINK_WriteReg(R5, 0x00000000)
T0B1C 000:534.359 - 0.011ms returns 0x00
T0B1C 000:534.369 JLINK_WriteReg(R6, 0x00000000)
T0B1C 000:534.419 - 0.057ms returns 0x00
T0B1C 000:534.433 JLINK_WriteReg(R7, 0x00000000)
T0B1C 000:534.441 - 0.012ms returns 0x00
T0B1C 000:534.451 JLINK_WriteReg(R8, 0x00000000)
T0B1C 000:534.459 - 0.011ms returns 0x00
T0B1C 000:534.469 JLINK_WriteReg(R9, 0x20000160)
T0B1C 000:534.477 - 0.011ms returns 0x00
T0B1C 000:534.486 JLINK_WriteReg(R10, 0x00000000)
T0B1C 000:534.494 - 0.011ms returns 0x00
T0B1C 000:534.504 JLINK_WriteReg(R11, 0x00000000)
T0B1C 000:534.512 - 0.011ms returns 0x00
T0B1C 000:534.522 JLINK_WriteReg(R12, 0x00000000)
T0B1C 000:534.530 - 0.011ms returns 0x00
T0B1C 000:534.539 JLINK_WriteReg(R13 (SP), 0x20001000)
T0B1C 000:534.548 - 0.012ms returns 0x00
T0B1C 000:534.558 JLINK_WriteReg(R14, 0x20000001)
T0B1C 000:534.566 - 0.011ms returns 0x00
T0B1C 000:534.576 JLINK_WriteReg(R15 (PC), 0x200000F4)
T0B1C 000:534.584 - 0.012ms returns 0x00
T0B1C 000:534.593 JLINK_WriteReg(XPSR, 0x01000000)
T0B1C 000:534.602 - 0.012ms returns 0x00
T0B1C 000:534.611 JLINK_WriteReg(MSP, 0x20001000)
T0B1C 000:534.619 - 0.011ms returns 0x00
T0B1C 000:534.629 JLINK_WriteReg(PSP, 0x20001000)
T0B1C 000:534.637 - 0.011ms returns 0x00
T0B1C 000:534.647 JLINK_WriteReg(CFBP, 0x00000000)
T0B1C 000:534.655 - 0.011ms returns 0x00
T0B1C 000:534.665   JLINK_SetBPEx(Addr = 0x20000000, Type = 0xFFFFFFF2)
T0B1C 000:534.677 - 0.016ms returns 0x00000007
T0B1C 000:534.687 JLINK_Go()
T0B1C 000:534.702   CPU_ReadMem(4 bytes @ 0xE0001000)
T0B1C 000:536.383 - 1.705ms
T0B1C 000:536.403 JLINK_IsHalted()
T0B1C 000:536.681 - 0.288ms returns FALSE
T0B1C 000:537.923 JLINK_IsHalted()
T0B1C 000:538.215 - 0.301ms returns FALSE
T0B1C 000:539.892 JLINK_IsHalted()
T0B1C 000:540.193 - 0.311ms returns FALSE
T0B1C 000:541.885 JLINK_IsHalted()
T0B1C 000:542.179 - 0.304ms returns FALSE
T0B1C 000:545.909 JLINK_IsHalted()
T0B1C 000:546.189 - 0.290ms returns FALSE
T0B1C 000:547.893 JLINK_IsHalted()
T0B1C 000:548.206 - 0.322ms returns FALSE
T0B1C 000:549.797 JLINK_IsHalted()
T0B1C 000:550.054 - 0.267ms returns FALSE
T0B1C 000:551.814 JLINK_IsHalted()
T0B1C 000:552.077 - 0.273ms returns FALSE
T0B1C 000:553.815 JLINK_IsHalted()
T0B1C 000:554.101 - 0.295ms returns FALSE
T0B1C 000:555.795 JLINK_IsHalted()
T0B1C 000:556.028 - 0.241ms returns FALSE
T0B1C 000:557.826 JLINK_IsHalted()
T0B1C 000:558.088 - 0.272ms returns FALSE
T0B1C 000:559.760 JLINK_IsHalted()
T0B1C 000:559.986 - 0.233ms returns FALSE
T0B1C 000:561.815 JLINK_IsHalted()
T0B1C 000:562.091 - 0.284ms returns FALSE
T0B1C 000:563.812 JLINK_IsHalted()
T0B1C 000:564.072 - 0.268ms returns FALSE
T0B1C 000:565.764 JLINK_IsHalted()
T0B1C 000:566.027 - 0.272ms returns FALSE
T0B1C 000:567.776 JLINK_IsHalted()
T0B1C 000:569.017   CPU_ReadMem(2 bytes @ 0x20000000)
T0B1C 000:569.340 - 1.573ms returns TRUE
T0B1C 000:569.357 JLINK_ReadReg(R15 (PC))
T0B1C 000:569.368 - 0.013ms returns 0x20000000
T0B1C 000:569.377 JLINK_ClrBPEx(BPHandle = 0x00000007)
T0B1C 000:569.385 - 0.011ms returns 0x00
T0B1C 000:569.394 JLINK_ReadReg(R0)
T0B1C 000:569.401 - 0.010ms returns 0x00000000
T0B1C 000:570.338 JLINK_WriteMem(0x20000164, 0x029C Bytes, ...)
T0B1C 000:570.352   Data:  C3 FE 30 B9 38 88 41 1E 00 28 39 80 F5 D1 0D 20 ...
T0B1C 000:570.369   CPU_WriteMem(668 bytes @ 0x20000164)
T0B1C 000:572.112 - 1.784ms returns 0x29C
T0B1C 000:572.132 JLINK_WriteMem(0x20000400, 0x0164 Bytes, ...)
T0B1C 000:572.140   Data:  04 90 01 37 B8 E7 00 F0 C5 F8 20 A0 04 F0 06 FA ...
T0B1C 000:572.158   CPU_WriteMem(356 bytes @ 0x20000400)
T0B1C 000:573.338 - 1.217ms returns 0x164
T0B1C 000:573.363 JLINK_WriteReg(R0, 0x08000C00)
T0B1C 000:573.375 - 0.016ms returns 0x00
T0B1C 000:573.386 JLINK_WriteReg(R1, 0x00000400)
T0B1C 000:573.395 - 0.013ms returns 0x00
T0B1C 000:573.405 JLINK_WriteReg(R2, 0x20000164)
T0B1C 000:573.412 - 0.010ms returns 0x00
T0B1C 000:573.421 JLINK_WriteReg(R3, 0x00000000)
T0B1C 000:573.428 - 0.010ms returns 0x00
T0B1C 000:573.436 JLINK_WriteReg(R4, 0x00000000)
T0B1C 000:573.444 - 0.010ms returns 0x00
T0B1C 000:573.452 JLINK_WriteReg(R5, 0x00000000)
T0B1C 000:573.460 - 0.013ms returns 0x00
T0B1C 000:573.473 JLINK_WriteReg(R6, 0x00000000)
T0B1C 000:573.480 - 0.010ms returns 0x00
T0B1C 000:573.489 JLINK_WriteReg(R7, 0x00000000)
T0B1C 000:573.496 - 0.010ms returns 0x00
T0B1C 000:573.505 JLINK_WriteReg(R8, 0x00000000)
T0B1C 000:573.512 - 0.010ms returns 0x00
T0B1C 000:573.521 JLINK_WriteReg(R9, 0x20000160)
T0B1C 000:573.528 - 0.010ms returns 0x00
T0B1C 000:573.537 JLINK_WriteReg(R10, 0x00000000)
T0B1C 000:573.544 - 0.010ms returns 0x00
T0B1C 000:573.553 JLINK_WriteReg(R11, 0x00000000)
T0B1C 000:573.560 - 0.010ms returns 0x00
T0B1C 000:573.569 JLINK_WriteReg(R12, 0x00000000)
T0B1C 000:573.576 - 0.010ms returns 0x00
T0B1C 000:573.585 JLINK_WriteReg(R13 (SP), 0x20001000)
T0B1C 000:573.594 - 0.012ms returns 0x00
T0B1C 000:573.602 JLINK_WriteReg(R14, 0x20000001)
T0B1C 000:573.610 - 0.010ms returns 0x00
T0B1C 000:573.618 JLINK_WriteReg(R15 (PC), 0x200000F4)
T0B1C 000:573.626 - 0.010ms returns 0x00
T0B1C 000:573.635 JLINK_WriteReg(XPSR, 0x01000000)
T0B1C 000:573.642 - 0.010ms returns 0x00
T0B1C 000:573.651 JLINK_WriteReg(MSP, 0x20001000)
T0B1C 000:573.658 - 0.010ms returns 0x00
T0B1C 000:573.667 JLINK_WriteReg(PSP, 0x20001000)
T0B1C 000:573.674 - 0.010ms returns 0x00
T0B1C 000:573.683 JLINK_WriteReg(CFBP, 0x00000000)
T0B1C 000:573.690 - 0.010ms returns 0x00
T0B1C 000:573.700   JLINK_SetBPEx(Addr = 0x20000000, Type = 0xFFFFFFF2)
T0B1C 000:573.714 - 0.018ms returns 0x00000008
T0B1C 000:573.723 JLINK_Go()
T0B1C 000:573.739   CPU_ReadMem(4 bytes @ 0xE0001000)
T0B1C 000:575.303 - 1.593ms
T0B1C 000:575.326 JLINK_IsHalted()
T0B1C 000:575.517 - 0.198ms returns FALSE
T0B1C 000:576.713 JLINK_IsHalted()
T0B1C 000:576.908 - 0.202ms returns FALSE
T0B1C 000:578.786 JLINK_IsHalted()
T0B1C 000:579.060 - 0.281ms returns FALSE
T0B1C 000:580.805 JLINK_IsHalted()
T0B1C 000:581.096 - 0.299ms returns FALSE
T0B1C 000:582.796 JLINK_IsHalted()
T0B1C 000:583.076 - 0.289ms returns FALSE
T0B1C 000:584.776 JLINK_IsHalted()
T0B1C 000:585.040 - 0.271ms returns FALSE
T0B1C 000:586.719 JLINK_IsHalted()
T0B1C 000:587.023 - 0.312ms returns FALSE
T0B1C 000:588.712 JLINK_IsHalted()
T0B1C 000:588.966 - 0.262ms returns FALSE
T0B1C 000:590.724 JLINK_IsHalted()
T0B1C 000:590.994 - 0.279ms returns FALSE
T0B1C 000:592.711 JLINK_IsHalted()
T0B1C 000:592.993 - 0.290ms returns FALSE
T0B1C 000:594.689 JLINK_IsHalted()
T0B1C 000:594.916 - 0.234ms returns FALSE
T0B1C 000:596.684 JLINK_IsHalted()
T0B1C 000:596.910 - 0.233ms returns FALSE
T0B1C 000:598.734 JLINK_IsHalted()
T0B1C 000:598.998 - 0.272ms returns FALSE
T0B1C 000:600.738 JLINK_IsHalted()
T0B1C 000:601.011 - 0.281ms returns FALSE
T0B1C 000:602.723 JLINK_IsHalted()
T0B1C 000:602.966 - 0.252ms returns FALSE
T0B1C 000:604.676 JLINK_IsHalted()
T0B1C 000:604.977 - 0.309ms returns FALSE
T0B1C 000:606.670 JLINK_IsHalted()
T0B1C 000:607.917   CPU_ReadMem(2 bytes @ 0x20000000)
T0B1C 000:608.207 - 1.545ms returns TRUE
T0B1C 000:608.227 JLINK_ReadReg(R15 (PC))
T0B1C 000:608.238 - 0.014ms returns 0x20000000
T0B1C 000:608.248 JLINK_ClrBPEx(BPHandle = 0x00000008)
T0B1C 000:608.255 - 0.011ms returns 0x00
T0B1C 000:608.330 JLINK_ReadReg(R0)
T0B1C 000:608.343 - 0.017ms returns 0x00000000
T0B1C 000:609.030 JLINK_WriteMem(0x20000164, 0x029C Bytes, ...)
T0B1C 000:609.044   Data:  1C B1 01 08 F8 B5 10 4C 2B 4F 40 25 80 26 32 20 ...
T0B1C 000:609.062   CPU_WriteMem(668 bytes @ 0x20000164)
T0B1C 000:610.732 - 1.712ms returns 0x29C
T0B1C 000:610.751 JLINK_WriteMem(0x20000400, 0x0164 Bytes, ...)
T0B1C 000:610.760   Data:  03 FA 02 F2 41 F8 20 20 70 BD 00 BF 00 E1 00 E0 ...
T0B1C 000:610.776   CPU_WriteMem(356 bytes @ 0x20000400)
T0B1C 000:611.862 - 1.120ms returns 0x164
T0B1C 000:611.885 JLINK_WriteReg(R0, 0x08001000)
T0B1C 000:611.896 - 0.014ms returns 0x00
T0B1C 000:611.904 JLINK_WriteReg(R1, 0x00000400)
T0B1C 000:611.912 - 0.011ms returns 0x00
T0B1C 000:611.920 JLINK_WriteReg(R2, 0x20000164)
T0B1C 000:611.928 - 0.010ms returns 0x00
T0B1C 000:611.936 JLINK_WriteReg(R3, 0x00000000)
T0B1C 000:611.943 - 0.010ms returns 0x00
T0B1C 000:611.955 JLINK_WriteReg(R4, 0x00000000)
T0B1C 000:611.964 - 0.012ms returns 0x00
T0B1C 000:611.972 JLINK_WriteReg(R5, 0x00000000)
T0B1C 000:611.979 - 0.010ms returns 0x00
T0B1C 000:611.988 JLINK_WriteReg(R6, 0x00000000)
T0B1C 000:611.995 - 0.010ms returns 0x00
T0B1C 000:612.003 JLINK_WriteReg(R7, 0x00000000)
T0B1C 000:612.010 - 0.010ms returns 0x00
T0B1C 000:612.018 JLINK_WriteReg(R8, 0x00000000)
T0B1C 000:612.025 - 0.010ms returns 0x00
T0B1C 000:612.034 JLINK_WriteReg(R9, 0x20000160)
T0B1C 000:612.041 - 0.010ms returns 0x00
T0B1C 000:612.049 JLINK_WriteReg(R10, 0x00000000)
T0B1C 000:612.056 - 0.010ms returns 0x00
T0B1C 000:612.064 JLINK_WriteReg(R11, 0x00000000)
T0B1C 000:612.071 - 0.010ms returns 0x00
T0B1C 000:612.080 JLINK_WriteReg(R12, 0x00000000)
T0B1C 000:612.086 - 0.010ms returns 0x00
T0B1C 000:612.095 JLINK_WriteReg(R13 (SP), 0x20001000)
T0B1C 000:612.102 - 0.011ms returns 0x00
T0B1C 000:612.111 JLINK_WriteReg(R14, 0x20000001)
T0B1C 000:612.118 - 0.010ms returns 0x00
T0B1C 000:612.126 JLINK_WriteReg(R15 (PC), 0x200000F4)
T0B1C 000:612.133 - 0.010ms returns 0x00
T0B1C 000:612.141 JLINK_WriteReg(XPSR, 0x01000000)
T0B1C 000:612.148 - 0.010ms returns 0x00
T0B1C 000:612.156 JLINK_WriteReg(MSP, 0x20001000)
T0B1C 000:612.163 - 0.010ms returns 0x00
T0B1C 000:612.171 JLINK_WriteReg(PSP, 0x20001000)
T0B1C 000:612.178 - 0.010ms returns 0x00
T0B1C 000:612.186 JLINK_WriteReg(CFBP, 0x00000000)
T0B1C 000:612.193 - 0.010ms returns 0x00
T0B1C 000:612.202   JLINK_SetBPEx(Addr = 0x20000000, Type = 0xFFFFFFF2)
T0B1C 000:612.213 - 0.014ms returns 0x00000009
T0B1C 000:612.221 JLINK_Go()
T0B1C 000:612.235   CPU_ReadMem(4 bytes @ 0xE0001000)
T0B1C 000:613.752 - 1.539ms
T0B1C 000:613.768 JLINK_IsHalted()
T0B1C 000:614.004 - 0.242ms returns FALSE
T0B1C 000:615.638 JLINK_IsHalted()
T0B1C 000:615.833 - 0.202ms returns FALSE
T0B1C 000:617.636 JLINK_IsHalted()
T0B1C 000:617.895 - 0.267ms returns FALSE
T0B1C 000:619.641 JLINK_IsHalted()
T0B1C 000:619.950 - 0.317ms returns FALSE
T0B1C 000:621.591 JLINK_IsHalted()
T0B1C 000:621.819 - 0.236ms returns FALSE
T0B1C 000:623.595 JLINK_IsHalted()
T0B1C 000:623.811 - 0.224ms returns FALSE
T0B1C 000:625.586 JLINK_IsHalted()
T0B1C 000:625.826 - 0.248ms returns FALSE
T0B1C 000:627.575 JLINK_IsHalted()
T0B1C 000:627.780 - 0.212ms returns FALSE
T0B1C 000:629.571 JLINK_IsHalted()
T0B1C 000:629.766 - 0.201ms returns FALSE
T0B1C 000:631.564 JLINK_IsHalted()
T0B1C 000:631.752 - 0.194ms returns FALSE
T0B1C 000:633.697 JLINK_IsHalted()
T0B1C 000:633.956 - 0.267ms returns FALSE
T0B1C 000:635.647 JLINK_IsHalted()
T0B1C 000:635.909 - 0.270ms returns FALSE
T0B1C 000:637.629 JLINK_IsHalted()
T0B1C 000:637.892 - 0.271ms returns FALSE
T0B1C 000:639.623 JLINK_IsHalted()
T0B1C 000:639.912 - 0.298ms returns FALSE
T0B1C 000:641.622 JLINK_IsHalted()
T0B1C 000:641.903 - 0.290ms returns FALSE
T0B1C 000:643.614 JLINK_IsHalted()
T0B1C 000:643.877 - 0.273ms returns FALSE
T0B1C 000:645.631 JLINK_IsHalted()
T0B1C 000:646.889   CPU_ReadMem(2 bytes @ 0x20000000)
T0B1C 000:647.169 - 1.546ms returns TRUE
T0B1C 000:647.187 JLINK_ReadReg(R15 (PC))
T0B1C 000:647.197 - 0.014ms returns 0x20000000
T0B1C 000:647.207 JLINK_ClrBPEx(BPHandle = 0x00000009)
T0B1C 000:647.215 - 0.011ms returns 0x00
T0B1C 000:647.225 JLINK_ReadReg(R0)
T0B1C 000:647.232 - 0.011ms returns 0x00000000
T0B1C 000:647.812 JLINK_WriteMem(0x20000164, 0x029C Bytes, ...)
T0B1C 000:647.825   Data:  80 3F 0A 68 22 F4 80 32 0A 60 0A 68 22 F4 80 22 ...
T0B1C 000:647.842   CPU_WriteMem(668 bytes @ 0x20000164)
T0B1C 000:649.577 - 1.775ms returns 0x29C
T0B1C 000:649.595 JLINK_WriteMem(0x20000400, 0x0164 Bytes, ...)
T0B1C 000:649.604   Data:  41 53 1A 43 4B 88 1A 43 8B 88 1A 43 CB 88 1A 43 ...
T0B1C 000:649.620   CPU_WriteMem(356 bytes @ 0x20000400)
T0B1C 000:650.785 - 1.198ms returns 0x164
T0B1C 000:650.807 JLINK_WriteReg(R0, 0x08001400)
T0B1C 000:650.818 - 0.015ms returns 0x00
T0B1C 000:650.828 JLINK_WriteReg(R1, 0x00000400)
T0B1C 000:650.836 - 0.011ms returns 0x00
T0B1C 000:650.845 JLINK_WriteReg(R2, 0x20000164)
T0B1C 000:650.857 - 0.016ms returns 0x00
T0B1C 000:650.867 JLINK_WriteReg(R3, 0x00000000)
T0B1C 000:650.874 - 0.011ms returns 0x00
T0B1C 000:650.884 JLINK_WriteReg(R4, 0x00000000)
T0B1C 000:650.892 - 0.011ms returns 0x00
T0B1C 000:650.901 JLINK_WriteReg(R5, 0x00000000)
T0B1C 000:650.908 - 0.011ms returns 0x00
T0B1C 000:650.917 JLINK_WriteReg(R6, 0x00000000)
T0B1C 000:650.925 - 0.011ms returns 0x00
T0B1C 000:650.934 JLINK_WriteReg(R7, 0x00000000)
T0B1C 000:650.942 - 0.011ms returns 0x00
T0B1C 000:650.951 JLINK_WriteReg(R8, 0x00000000)
T0B1C 000:650.959 - 0.011ms returns 0x00
T0B1C 000:650.968 JLINK_WriteReg(R9, 0x20000160)
T0B1C 000:650.975 - 0.011ms returns 0x00
T0B1C 000:650.984 JLINK_WriteReg(R10, 0x00000000)
T0B1C 000:650.992 - 0.011ms returns 0x00
T0B1C 000:651.001 JLINK_WriteReg(R11, 0x00000000)
T0B1C 000:651.009 - 0.011ms returns 0x00
T0B1C 000:651.018 JLINK_WriteReg(R12, 0x00000000)
T0B1C 000:651.025 - 0.011ms returns 0x00
T0B1C 000:651.035 JLINK_WriteReg(R13 (SP), 0x20001000)
T0B1C 000:651.043 - 0.012ms returns 0x00
T0B1C 000:651.052 JLINK_WriteReg(R14, 0x20000001)
T0B1C 000:651.060 - 0.011ms returns 0x00
T0B1C 000:651.069 JLINK_WriteReg(R15 (PC), 0x200000F4)
T0B1C 000:651.077 - 0.011ms returns 0x00
T0B1C 000:651.086 JLINK_WriteReg(XPSR, 0x01000000)
T0B1C 000:651.094 - 0.011ms returns 0x00
T0B1C 000:651.103 JLINK_WriteReg(MSP, 0x20001000)
T0B1C 000:651.110 - 0.011ms returns 0x00
T0B1C 000:651.119 JLINK_WriteReg(PSP, 0x20001000)
T0B1C 000:651.127 - 0.011ms returns 0x00
T0B1C 000:651.136 JLINK_WriteReg(CFBP, 0x00000000)
T0B1C 000:651.144 - 0.011ms returns 0x00
T0B1C 000:651.154   JLINK_SetBPEx(Addr = 0x20000000, Type = 0xFFFFFFF2)
T0B1C 000:651.166 - 0.016ms returns 0x0000000A
T0B1C 000:651.175 JLINK_Go()
T0B1C 000:651.190   CPU_ReadMem(4 bytes @ 0xE0001000)
T0B1C 000:652.876 - 1.710ms
T0B1C 000:652.894 JLINK_IsHalted()
T0B1C 000:653.178 - 0.292ms returns FALSE
T0B1C 000:658.498 JLINK_IsHalted()
T0B1C 000:658.768 - 0.278ms returns FALSE
T0B1C 000:660.490 JLINK_IsHalted()
T0B1C 000:660.722 - 0.241ms returns FALSE
T0B1C 000:662.485 JLINK_IsHalted()
T0B1C 000:662.687 - 0.209ms returns FALSE
T0B1C 000:664.479 JLINK_IsHalted()
T0B1C 000:664.676 - 0.205ms returns FALSE
T0B1C 000:666.581 JLINK_IsHalted()
T0B1C 000:666.873 - 0.301ms returns FALSE
T0B1C 000:668.547 JLINK_IsHalted()
T0B1C 000:668.813 - 0.274ms returns FALSE
T0B1C 000:670.544 JLINK_IsHalted()
T0B1C 000:670.809 - 0.274ms returns FALSE
T0B1C 000:672.560 JLINK_IsHalted()
T0B1C 000:672.837 - 0.286ms returns FALSE
T0B1C 000:674.492 JLINK_IsHalted()
T0B1C 000:674.793 - 0.310ms returns FALSE
T0B1C 000:676.480 JLINK_IsHalted()
T0B1C 000:676.744 - 0.272ms returns FALSE
T0B1C 000:678.491 JLINK_IsHalted()
T0B1C 000:678.739 - 0.255ms returns FALSE
T0B1C 000:680.475 JLINK_IsHalted()
T0B1C 000:680.713 - 0.247ms returns FALSE
T0B1C 000:682.455 JLINK_IsHalted()
T0B1C 000:682.686 - 0.240ms returns FALSE
T0B1C 000:684.430 JLINK_IsHalted()
T0B1C 000:685.613   CPU_ReadMem(2 bytes @ 0x20000000)
T0B1C 000:685.872 - 1.450ms returns TRUE
T0B1C 000:685.891 JLINK_ReadReg(R15 (PC))
T0B1C 000:685.900 - 0.013ms returns 0x20000000
T0B1C 000:685.909 JLINK_ClrBPEx(BPHandle = 0x0000000A)
T0B1C 000:685.917 - 0.010ms returns 0x00
T0B1C 000:685.927 JLINK_ReadReg(R0)
T0B1C 000:685.935 - 0.010ms returns 0x00000000
T0B1C 000:686.709 JLINK_WriteMem(0x20000164, 0x029C Bytes, ...)
T0B1C 000:686.722   Data:  F0 B2 B8 47 B5 F5 80 5F 0A D9 0C A0 03 F0 54 FD ...
T0B1C 000:686.739   CPU_WriteMem(668 bytes @ 0x20000164)
T0B1C 000:688.464 - 1.762ms returns 0x29C
T0B1C 000:688.480 JLINK_WriteMem(0x20000400, 0x0164 Bytes, ...)
T0B1C 000:688.488   Data:  30 46 FF F7 53 FC 69 49 06 F1 08 00 02 22 6F F0 ...
T0B1C 000:688.502   CPU_WriteMem(356 bytes @ 0x20000400)
T0B1C 000:689.638 - 1.166ms returns 0x164
T0B1C 000:689.657 JLINK_WriteReg(R0, 0x08001800)
T0B1C 000:689.668 - 0.013ms returns 0x00
T0B1C 000:689.677 JLINK_WriteReg(R1, 0x00000400)
T0B1C 000:689.684 - 0.010ms returns 0x00
T0B1C 000:689.696 JLINK_WriteReg(R2, 0x20000164)
T0B1C 000:689.705 - 0.012ms returns 0x00
T0B1C 000:689.714 JLINK_WriteReg(R3, 0x00000000)
T0B1C 000:689.721 - 0.024ms returns 0x00
T0B1C 000:689.744 JLINK_WriteReg(R4, 0x00000000)
T0B1C 000:689.751 - 0.010ms returns 0x00
T0B1C 000:689.760 JLINK_WriteReg(R5, 0x00000000)
T0B1C 000:689.767 - 0.010ms returns 0x00
T0B1C 000:689.776 JLINK_WriteReg(R6, 0x00000000)
T0B1C 000:689.783 - 0.010ms returns 0x00
T0B1C 000:689.791 JLINK_WriteReg(R7, 0x00000000)
T0B1C 000:689.799 - 0.010ms returns 0x00
T0B1C 000:689.807 JLINK_WriteReg(R8, 0x00000000)
T0B1C 000:689.814 - 0.011ms returns 0x00
T0B1C 000:689.823 JLINK_WriteReg(R9, 0x20000160)
T0B1C 000:689.831 - 0.010ms returns 0x00
T0B1C 000:689.839 JLINK_WriteReg(R10, 0x00000000)
T0B1C 000:689.846 - 0.010ms returns 0x00
T0B1C 000:689.855 JLINK_WriteReg(R11, 0x00000000)
T0B1C 000:689.862 - 0.010ms returns 0x00
T0B1C 000:689.871 JLINK_WriteReg(R12, 0x00000000)
T0B1C 000:689.878 - 0.010ms returns 0x00
T0B1C 000:689.887 JLINK_WriteReg(R13 (SP), 0x20001000)
T0B1C 000:689.900 - 0.016ms returns 0x00
T0B1C 000:689.909 JLINK_WriteReg(R14, 0x20000001)
T0B1C 000:689.916 - 0.010ms returns 0x00
T0B1C 000:689.925 JLINK_WriteReg(R15 (PC), 0x200000F4)
T0B1C 000:689.932 - 0.010ms returns 0x00
T0B1C 000:689.941 JLINK_WriteReg(XPSR, 0x01000000)
T0B1C 000:689.948 - 0.010ms returns 0x00
T0B1C 000:689.957 JLINK_WriteReg(MSP, 0x20001000)
T0B1C 000:689.964 - 0.010ms returns 0x00
T0B1C 000:689.973 JLINK_WriteReg(PSP, 0x20001000)
T0B1C 000:689.980 - 0.010ms returns 0x00
T0B1C 000:689.988 JLINK_WriteReg(CFBP, 0x00000000)
T0B1C 000:689.996 - 0.010ms returns 0x00
T0B1C 000:690.005   JLINK_SetBPEx(Addr = 0x20000000, Type = 0xFFFFFFF2)
T0B1C 000:690.016 - 0.015ms returns 0x0000000B
T0B1C 000:690.025 JLINK_Go()
T0B1C 000:690.039   CPU_ReadMem(4 bytes @ 0xE0001000)
T0B1C 000:691.694 - 1.690ms
